T2468 20251:554.603   SEGGER J-Link V6.54c Log File
T2468 20251:554.656   DLL Compiled: Nov  7 2019 17:01:02
T2468 20251:554.666   Logging started @ 2019-12-12 09:59
T2468 20251:554.681 JLINK_SetWarnOutHandler(...)
T2468 20251:554.691 - 0.013ms
T2468 20251:554.701 JLINK_OpenEx(...)
T2468 20251:560.237   Firmware: J-Link OB-SAM3U128-V2-NordicSemi compiled Jan  7 2019 14:07:15
T2468 20251:567.387   Hardware: V1.00
T2468 20251:567.412   S/N: 682512624
T2468 20251:567.424   OEM: SEGGER
T2468 20251:567.436   Feature(s): None
T2468 20251:572.181   TELNET listener socket opened on port 19021
T2468 20251:598.575   WEBSRV Starting webserver
T2468 20251:598.845   WEBSRV Webserver running on local port 19081
T2468 20251:598.874 - 44.180ms returns "O.K."
T2468 20251:598.983 JLINK_GetEmuCaps()
T2468 20251:599.002 - 0.025ms returns 0xB8EA5A33
T2468 20251:600.685 JLINK_TIF_GetAvailable(...)
T2468 20251:601.792 - 1.121ms
T2468 20251:601.840 JLINK_SetErrorOutHandler(...)
T2468 20251:601.852 - 0.016ms
T2468 20251:601.868 JLINK_ExecCommand("ProjectFile = "C:\Users\William\Downloads\nRF5_SDK_16.0.0_98a08e2\examples\ble_peripheral\ble_app_uart\pca10040\s132\arm5_no_packs\JLinkSettings.ini"", ...). 
T2468 20251:603.710 - 1.854ms returns 0x00
T2468 20251:603.756 JLINK_ExecCommand("Device = nRF52832_xxAA", ...). 
T2468 20251:604.124   Device "NRF52832_XXAA" selected.
T2468 20251:604.647 - 0.892ms returns 0x00
T2468 20251:604.673 JLINK_ExecCommand("DisableConnectionTimeout", ...). 
T2468 20251:604.696 - 0.015ms returns 0x01
T2468 20251:604.719 JLINK_GetHardwareVersion()
T2468 20251:604.735 - 0.022ms returns 0x2710
T2468 20251:604.749 JLINK_GetDLLVersion()  returns 65403
T2468 20251:604.766 JLINK_GetFirmwareString(...)
T2468 20251:604.781 - 0.019ms
T2468 20251:604.807 JLINK_GetDLLVersion()  returns 65403
T2468 20251:604.818 JLINK_GetCompileDateTime()
T2468 20251:604.826 - 0.012ms
T2468 20251:604.840 JLINK_GetFirmwareString(...)
T2468 20251:604.849 - 0.013ms
T2468 20251:604.862 JLINK_GetHardwareVersion()
T2468 20251:604.871 - 0.013ms returns 0x2710
T2468 20251:604.892 JLINK_TIF_Select(JLINKARM_TIF_SWD)
T2468 20251:609.906 - 5.036ms returns 0x00
T2468 20251:609.984 JLINK_SetSpeed(5000)
T2468 20251:611.203 - 1.238ms
T2468 20251:611.268 JLINK_GetId()
T2468 20251:616.665   InitTarget() start
T2468 20251:616.691    J-Link Script File: Executing InitTarget()
T2468 20251:620.682   InitTarget() end
T2468 20251:621.345   Found SW-DP with ID 0x2BA01477
T2468 20251:624.263   Scanning AP map to find all available APs
T2468 20251:627.121   AP[2]: Stopped AP scan as end of AP map has been reached
T2468 20251:627.151   AP[0]: AHB-AP (IDR: 0x24770011)
T2468 20251:627.167   AP[1]: JTAG-AP (IDR: 0x02880000)
T2468 20251:627.183   Iterating through AP map to find AHB-AP to use
T2468 20251:631.609   AP[0]: Core found
T2468 20251:631.638   AP[0]: AHB-AP ROM base: 0xE00FF000
T2468 20251:633.609   CPUID register: 0x410FC241. Implementer code: 0x41 (ARM)
T2468 20251:633.632   Found Cortex-M4 r0p1, Little endian.
T2468 20251:735.061    -- Max. mem block: 0x00003458
T2468 20251:735.095    -- CPU_ReadMem(4 bytes @ 0xE000EDF0)
T2468 20251:737.220    -- CPU_WriteMem(4 bytes @ 0xE000EDF0)
T2468 20251:737.761    -- CPU_ReadMem(4 bytes @ 0xE0002000)
T2468 20251:738.321   FPUnit: 6 code (BP) slots and 2 literal slots
T2468 20251:738.345    -- CPU_ReadMem(4 bytes @ 0xE000EDFC)
T2468 20251:738.855    -- CPU_WriteMem(4 bytes @ 0xE000EDFC)
T2468 20251:739.389    -- CPU_ReadMem(4 bytes @ 0xE0001000)
T2468 20251:739.928    -- CPU_WriteMem(4 bytes @ 0xE0001000)
T2468 20251:740.439    -- CPU_ReadMem(4 bytes @ 0xE000ED88)
T2468 20251:741.052    -- CPU_WriteMem(4 bytes @ 0xE000ED88)
T2468 20251:741.595    -- CPU_ReadMem(4 bytes @ 0xE000ED88)
T2468 20251:742.177    -- CPU_WriteMem(4 bytes @ 0xE000ED88)
T2468 20251:742.728   CoreSight components:
T2468 20251:742.755   ROMTbl[0] @ E00FF000
T2468 20251:742.769    -- CPU_ReadMem(16 bytes @ 0xE00FF000)
T2468 20251:743.414    -- CPU_ReadMem(16 bytes @ 0xE000EFF0)
T2468 20251:744.073    -- CPU_ReadMem(16 bytes @ 0xE000EFE0)
T2468 20251:744.852   ROMTbl[0][0]: E000E000, CID: B105E00D, PID: 000BB00C SCS-M7
T2468 20251:744.878    -- CPU_ReadMem(16 bytes @ 0xE0001FF0)
T2468 20251:745.572    -- CPU_ReadMem(16 bytes @ 0xE0001FE0)
T2468 20251:746.329   ROMTbl[0][1]: E0001000, CID: B105E00D, PID: 003BB002 DWT
T2468 20251:746.360    -- CPU_ReadMem(16 bytes @ 0xE0002FF0)
T2468 20251:747.077    -- CPU_ReadMem(16 bytes @ 0xE0002FE0)
T2468 20251:747.829   ROMTbl[0][2]: E0002000, CID: B105E00D, PID: 002BB003 FPB
T2468 20251:747.855    -- CPU_ReadMem(16 bytes @ 0xE0000FF0)
T2468 20251:748.564    -- CPU_ReadMem(16 bytes @ 0xE0000FE0)
T2468 20251:749.327   ROMTbl[0][3]: E0000000, CID: B105E00D, PID: 003BB001 ITM
T2468 20251:749.345    -- CPU_ReadMem(16 bytes @ 0xE00FF010)
T2468 20251:750.068    -- CPU_ReadMem(16 bytes @ 0xE0040FF0)
T2468 20251:750.818    -- CPU_ReadMem(16 bytes @ 0xE0040FE0)
T2468 20251:751.611   ROMTbl[0][4]: E0040000, CID: B105900D, PID: 000BB9A1 TPIU
T2468 20251:751.628    -- CPU_ReadMem(16 bytes @ 0xE0041FF0)
T2468 20251:752.327    -- CPU_ReadMem(16 bytes @ 0xE0041FE0)
T2468 20251:753.104   ROMTbl[0][5]: E0041000, CID: B105900D, PID: 000BB925 ETM
T2468 20251:753.427 - 142.167ms   returns 0x2BA01477
T2468 20251:753.459 JLINK_GetDLLVersion()  returns 65403
T2468 20251:753.474 JLINK_CORE_GetFound()
T2468 20251:753.483 - 0.012ms returns 0xE0000FF
T2468 20251:753.494 JLINK_GetDebugInfo(0x100 = JLINKARM_ROM_TABLE_ADDR_INDEX)
T2468 20251:753.503   Value=0xE00FF000
T2468 20251:753.515 - 0.025ms returns 0x00
T2468 20251:753.531 JLINK_GetDebugInfo(0x100 = JLINKARM_ROM_TABLE_ADDR_INDEX)
T2468 20251:753.540   Value=0xE00FF000
T2468 20251:753.552 - 0.025ms returns 0x00
T2468 20251:753.562 JLINK_GetDebugInfo(0x101 = JLINKARM_DEBUG_INFO_ETM_ADDR_INDEX)
T2468 20251:753.570   Value=0xE0041000
T2468 20251:753.582 - 0.024ms returns 0x00
T2468 20251:753.593   JLINK_ReadMemEx(0xE0041FD0, 0x0020 Bytes, ..., Flags = 0x02000004)
T2468 20251:753.610    -- CPU_ReadMem(32 bytes @ 0xE0041FD0)
T2468 20251:754.592   Data:  04 00 00 00 00 00 00 00 00 00 00 00 00 00 00 00 ...
T2468 20251:754.609 - 1.021ms returns 0x20
T2468 20251:754.635 JLINK_GetDebugInfo(0x102 = JLINKARM_DEBUG_INFO_MTB_ADDR_INDEX)
T2468 20251:754.646   Value=0x00000000
T2468 20251:754.658 - 0.027ms returns 0x00
T2468 20251:754.667 JLINK_GetDebugInfo(0x103 = JLINKARM_DEBUG_INFO_TPIU_ADDR_INDEX)
T2468 20251:754.675   Value=0xE0040000
T2468 20251:754.687 - 0.024ms returns 0x00
T2468 20251:754.696 JLINK_GetDebugInfo(0x104 = JLINKARM_DEBUG_INFO_ITM_ADDR_INDEX)
T2468 20251:754.705   Value=0xE0000000
T2468 20251:754.717 - 0.024ms returns 0x00
T2468 20251:754.726 JLINK_GetDebugInfo(0x105 = JLINKARM_DEBUG_INFO_DWT_ADDR_INDEX)
T2468 20251:754.734   Value=0xE0001000
T2468 20251:754.746 - 0.024ms returns 0x00
T2468 20251:754.755 JLINK_GetDebugInfo(0x106 = JLINKARM_DEBUG_INFO_FPB_ADDR_INDEX)
T2468 20251:754.763   Value=0xE0002000
T2468 20251:754.777 - 0.026ms returns 0x00
T2468 20251:754.786 JLINK_GetDebugInfo(0x107 = JLINKARM_DEBUG_INFO_NVIC_ADDR_INDEX)
T2468 20251:754.794   Value=0xE000E000
T2468 20251:754.806 - 0.024ms returns 0x00
T2468 20251:754.815 JLINK_GetDebugInfo(0x10C = JLINKARM_DEBUG_INFO_DBG_ADDR_INDEX)
T2468 20251:754.824   Value=0xE000EDF0
T2468 20251:754.835 - 0.024ms returns 0x00
T2468 20251:754.844 JLINK_GetDebugInfo(0x01 = Unknown)
T2468 20251:754.853   Value=0x00000001
T2468 20251:754.865 - 0.024ms returns 0x00
T2468 20251:754.878   JLINK_ReadMemU32(0xE000ED00, 0x0001 Items, ...)
T2468 20251:754.893    -- CPU_ReadMem(4 bytes @ 0xE000ED00)
T2468 20251:756.144   Data:  41 C2 0F 41
T2468 20251:756.164    - CPUID
T2468 20251:756.176 - 1.304ms returns 1
T2468 20251:756.205 JLINK_GetDebugInfo(0x10F = JLINKARM_DEBUG_INFO_HAS_CORTEX_M_SECURITY_EXT_INDEX)
T2468 20251:756.216   Value=0x00000000
T2468 20251:756.228 - 0.027ms returns 0x00
T2468 20251:756.241 JLINK_SetResetType(JLINKARM_CM3_RESET_TYPE_NORMAL)
T2468 20251:756.250 - 0.013ms returns JLINKARM_CM3_RESET_TYPE_NORMAL
T2468 20251:756.259 JLINK_Reset()
T2468 20251:758.064   CPU is running
T2468 20251:758.082    -- CPU_WriteMem(4 bytes @ 0xE000EDF0)
T2468 20251:758.667   CPU is running
T2468 20251:758.692    -- CPU_WriteMem(4 bytes @ 0xE000EDFC)
T2468 20251:759.263   Reset: Halt core after reset via DEMCR.VC_CORERESET.
T2468 20251:759.740   Reset: Reset device via AIRCR.SYSRESETREQ.
T2468 20251:759.772   CPU is running
T2468 20251:759.792    -- CPU_WriteMem(4 bytes @ 0xE000ED0C)
T2468 20251:813.118    -- CPU_ReadMem(4 bytes @ 0xE000EDF0)
T2468 20251:813.778    -- CPU_ReadMem(4 bytes @ 0xE000EDF0)
T2468 20251:814.484   CPU is running
T2468 20251:814.509    -- CPU_WriteMem(4 bytes @ 0xE000EDF0)
T2468 20251:815.145   CPU is running
T2468 20251:815.170    -- CPU_WriteMem(4 bytes @ 0xE000EDFC)
T2468 20251:821.327    -- CPU_ReadMem(4 bytes @ 0xE000EDF0)
T2468 20251:828.581    -- CPU_WriteMem(4 bytes @ 0xE0002000)
T2468 20251:829.226    -- CPU_ReadMem(4 bytes @ 0xE000EDFC)
T2468 20251:829.869    -- CPU_ReadMem(4 bytes @ 0xE0001000)
T2468 20251:830.587 - 74.341ms
T2468 20251:830.655 JLINK_ReadReg(R15 (PC))
T2468 20251:830.671 - 0.021ms returns 0x00000A80
T2468 20251:830.681 JLINK_ReadReg(XPSR)
T2468 20251:830.690 - 0.012ms returns 0x01000000
T2468 20251:830.701 JLINK_Halt()
T2468 20251:830.709 - 0.012ms returns 0x00
T2468 20251:830.721   JLINK_ReadMemU32(0xE000EDF0, 0x0001 Items, ...)
T2468 20251:830.744    -- CPU_ReadMem(4 bytes @ 0xE000EDF0)
T2468 20251:884.756   Data:  03 00 03 00
T2468 20251:884.786    - DHCSR
T2468 20251:884.798 - 54.081ms returns 1
T2468 20251:884.836   JLINK_WriteU32(0xE000EDF0, 0xA05F0003)
T2468 20251:884.850    - DHCSR
T2468 20251:884.871    -- CPU_WriteMem(4 bytes @ 0xE000EDF0)
T2468 20251:885.514 - 0.692ms returns 0
T2468 20251:885.559   JLINK_WriteU32(0xE000EDFC, 0x01000000)
T2468 20251:885.575    - DEMCR
T2468 20251:885.590    -- CPU_WriteMem(4 bytes @ 0xE000EDFC)
T2468 20251:886.242 - 0.696ms returns 0
T2468 20251:886.308 JLINK_GetHWStatus(...)
T2468 20251:886.625 - 0.330ms returns 0x00
T2468 20251:886.689 JLINK_GetNumBPUnits(Type = 0xFFFFFF00)
T2468 20251:886.702 - 0.016ms returns 0x06
T2468 20251:886.716 JLINK_GetNumBPUnits(Type = 0xF0)
T2468 20251:886.724 - 0.012ms returns 0x2000
T2468 20251:886.734 JLINK_GetNumWPUnits()
T2468 20251:886.742 - 0.012ms returns 0x04
T2468 20251:886.758 JLINK_GetSpeed()
T2468 20251:886.767 - 0.012ms returns 0x3E8
T2468 20251:886.781   JLINK_ReadMemU32(0xE000E004, 0x0001 Items, ...)
T2468 20251:886.796    -- CPU_ReadMem(4 bytes @ 0xE000E004)
T2468 20251:887.392   Data:  01 00 00 00
T2468 20251:887.414 - 0.638ms returns 1
T2468 20251:887.445   JLINK_ReadMemU32(0xE000E004, 0x0001 Items, ...)
T2468 20251:887.463    -- CPU_ReadMem(4 bytes @ 0xE000E004)
T2468 20251:888.100   Data:  01 00 00 00
T2468 20251:888.122 - 0.681ms returns 1
T2468 20251:888.155 JLINK_WriteMemEx(0xE0001000, 0x001C Bytes, ..., Flags = 0x02000004)
T2468 20251:888.166   Data:  01 00 00 00 00 00 00 00 00 00 00 00 00 00 00 00 ...
T2468 20251:888.479    -- CPU_WriteMem(28 bytes @ 0xE0001000)
T2468 20251:889.390 - 1.248ms returns 0x1C
T2468 20251:889.443 JLINK_ReadReg(R15 (PC))
T2468 20251:889.456 - 0.017ms returns 0x00000A80
T2468 20251:889.466 JLINK_ReadReg(XPSR)
T2468 20251:889.475 - 0.012ms returns 0x01000000
T2468 20251:893.598   JLINK_ReadMemEx(0xE0001004, 0x0004 Bytes, ..., Flags = 0x02000000)
T2468 20251:893.624   Data:  00 00 00 00
T2468 20251:893.637    - DWT_CYCCNT
T2468 20251:893.648 - 0.054ms returns 0x04
T2468 20251:997.332 JLINK_SetResetType(JLINKARM_CM3_RESET_TYPE_NORMAL)
T2468 20251:997.363 - 0.036ms returns JLINKARM_CM3_RESET_TYPE_NORMAL
T2468 20251:997.374 JLINK_Reset()
T2468 20252:001.346    -- CPU_WriteMem(4 bytes @ 0xE000EDF0)
T2468 20252:002.004    -- CPU_WriteMem(4 bytes @ 0xE000EDFC)
T2468 20252:002.737   Reset: Halt core after reset via DEMCR.VC_CORERESET.
T2468 20252:003.222   Reset: Reset device via AIRCR.SYSRESETREQ.
T2468 20252:003.247    -- CPU_WriteMem(4 bytes @ 0xE000ED0C)
T2468 20252:056.619    -- CPU_ReadMem(4 bytes @ 0xE000EDF0)
T2468 20252:057.266    -- CPU_ReadMem(4 bytes @ 0xE000EDF0)
T2468 20252:057.893    -- CPU_WriteMem(4 bytes @ 0xE000EDF0)
T2468 20252:058.422    -- CPU_WriteMem(4 bytes @ 0xE000EDFC)
T2468 20252:064.812    -- CPU_ReadMem(4 bytes @ 0xE000EDF0)
T2468 20252:071.985    -- CPU_WriteMem(4 bytes @ 0xE0002000)
T2468 20252:072.643    -- CPU_ReadMem(4 bytes @ 0xE000EDFC)
T2468 20252:073.373    -- CPU_ReadMem(4 bytes @ 0xE0001000)
T2468 20252:074.123 - 76.762ms
T2468 20252:074.321 JLINK_ReadReg(R15 (PC))
T2468 20252:074.342 - 0.025ms returns 0x00000A80
T2468 20252:074.354 JLINK_ReadReg(XPSR)
T2468 20252:074.363 - 0.013ms returns 0x01000000
T2468 20252:074.433   JLINK_ReadMemEx(0x00000A80, 0x003C Bytes, ..., Flags = 0x02000000)
T2468 20252:074.452    -- CPU_ReadMem(64 bytes @ 0x00000A80)
T2468 20252:129.152    -- Updating C cache (64 bytes @ 0x00000A80)
T2468 20252:129.184    -- Read from C cache (60 bytes @ 0x00000A80)
T2468 20252:129.199   Data:  06 4B 18 47 06 4A 10 60 01 68 81 F3 08 88 40 68 ...
T2468 20252:129.210 - 54.782ms returns 0x3C
T2468 20252:129.250   JLINK_ReadMemEx(0x00000A80, 0x0002 Bytes, ..., Flags = 0x02000000)
T2468 20252:129.268    -- Read from C cache (2 bytes @ 0x00000A80)
T2468 20252:129.280   Data:  06 4B
T2468 20252:129.292 - 0.046ms returns 0x02
T2468 20252:129.306   JLINK_ReadMemEx(0x00000A82, 0x0002 Bytes, ..., Flags = 0x02000000)
T2468 20252:129.318    -- Read from C cache (2 bytes @ 0x00000A82)
T2468 20252:129.330   Data:  18 47
T2468 20252:129.341 - 0.040ms returns 0x02
T2468 20252:129.378   JLINK_ReadMemEx(0x00000A82, 0x0002 Bytes, ..., Flags = 0x02000000)
T2468 20252:129.391    -- Read from C cache (2 bytes @ 0x00000A82)
T2468 20252:129.403   Data:  18 47
T2468 20252:129.414 - 0.041ms returns 0x02
T2468 20252:129.424   JLINK_ReadMemEx(0x00000A84, 0x003C Bytes, ..., Flags = 0x02000000)
T2468 20252:129.436    -- Read from C cache (60 bytes @ 0x00000A84)
T2468 20252:129.448   Data:  06 4A 10 60 01 68 81 F3 08 88 40 68 00 47 00 00 ...
T2468 20252:129.460 - 0.040ms returns 0x3C
T2468 20252:129.469   JLINK_ReadMemEx(0x00000A84, 0x0002 Bytes, ..., Flags = 0x02000000)
T2468 20252:129.481    -- Read from C cache (2 bytes @ 0x00000A84)
T2468 20252:129.493   Data:  06 4A
T2468 20252:129.504 - 0.039ms returns 0x02
T2468 20253:147.726   JLINK_ReadMemEx(0x00000A84, 0x003C Bytes, ..., Flags = 0x02000000)
T2468 20253:147.770    -- Read from C cache (60 bytes @ 0x00000A84)
T2468 20253:147.786   Data:  06 4A 10 60 01 68 81 F3 08 88 40 68 00 47 00 00 ...
T2468 20253:147.799 - 0.079ms returns 0x3C
T2468 20253:147.811   JLINK_ReadMemEx(0x00000A84, 0x0002 Bytes, ..., Flags = 0x02000000)
T2468 20253:147.826    -- Read from C cache (2 bytes @ 0x00000A84)
T2468 20253:147.839   Data:  06 4A
T2468 20253:147.853 - 0.047ms returns 0x02
T2468 20253:147.864   JLINK_ReadMemEx(0x00000A86, 0x0002 Bytes, ..., Flags = 0x02000000)
T2468 20253:147.879    -- Read from C cache (2 bytes @ 0x00000A86)
T2468 20253:147.892   Data:  10 60
T2468 20253:147.906 - 0.046ms returns 0x02
T2468 20253:147.926   JLINK_ReadMemEx(0x00000A86, 0x0002 Bytes, ..., Flags = 0x02000000)
T2468 20253:147.941    -- Read from C cache (2 bytes @ 0x00000A86)
T2468 20253:147.955   Data:  10 60
T2468 20253:147.969 - 0.047ms returns 0x02
T2468 20253:147.980   JLINK_ReadMemEx(0x00000A88, 0x003C Bytes, ..., Flags = 0x02000000)
T2468 20253:147.998    -- CPU_ReadMem(64 bytes @ 0x00000AC0)
T2468 20253:149.419    -- Updating C cache (64 bytes @ 0x00000AC0)
T2468 20253:149.440    -- Read from C cache (60 bytes @ 0x00000A88)
T2468 20253:149.455   Data:  01 68 81 F3 08 88 40 68 00 47 00 00 00 0B 00 00 ...
T2468 20253:149.468 - 1.493ms returns 0x3C
T2468 20253:149.499   JLINK_ReadMemEx(0x00000A88, 0x0002 Bytes, ..., Flags = 0x02000000)
T2468 20253:149.516    -- Read from C cache (2 bytes @ 0x00000A88)
T2468 20253:149.532   Data:  01 68
T2468 20253:149.546 - 0.052ms returns 0x02
T2468 20253:375.756 JLINK_ReadReg(R0)
T2468 20253:376.440 - 0.703ms returns 0x00000000
T2468 20253:376.495 JLINK_ReadReg(R1)
T2468 20253:376.509 - 0.055ms returns 0x00000000
T2468 20253:376.561 JLINK_ReadReg(R2)
T2468 20253:376.571 - 0.015ms returns 0x00000000
T2468 20253:376.582 JLINK_ReadReg(R3)
T2468 20253:376.592 - 0.014ms returns 0x00000000
T2468 20253:376.603 JLINK_ReadReg(R4)
T2468 20253:376.612 - 0.014ms returns 0x00000000
T2468 20253:376.623 JLINK_ReadReg(R5)
T2468 20253:376.632 - 0.014ms returns 0x00000000
T2468 20253:376.643 JLINK_ReadReg(R6)
T2468 20253:376.653 - 0.014ms returns 0x00000000
T2468 20253:376.663 JLINK_ReadReg(R7)
T2468 20253:376.673 - 0.014ms returns 0x00000000
T2468 20253:376.684 JLINK_ReadReg(R8)
T2468 20253:376.694 - 0.014ms returns 0x00000000
T2468 20253:376.704 JLINK_ReadReg(R9)
T2468 20253:376.714 - 0.014ms returns 0x00000000
T2468 20253:376.726 JLINK_ReadReg(R10)
T2468 20253:376.735 - 0.014ms returns 0x00000000
T2468 20253:376.746 JLINK_ReadReg(R11)
T2468 20253:376.755 - 0.014ms returns 0x00000000
T2468 20253:376.766 JLINK_ReadReg(R12)
T2468 20253:376.775 - 0.014ms returns 0x00000000
T2468 20253:376.786 JLINK_ReadReg(R13 (SP))
T2468 20253:376.796 - 0.014ms returns 0x20000400
T2468 20253:376.806 JLINK_ReadReg(R14)
T2468 20253:376.816 - 0.014ms returns 0xFFFFFFFF
T2468 20253:376.827 JLINK_ReadReg(R15 (PC))
T2468 20253:376.836 - 0.014ms returns 0x00000A80
T2468 20253:376.847 JLINK_ReadReg(XPSR)
T2468 20253:376.857 - 0.014ms returns 0x01000000
T2468 20253:376.867 JLINK_ReadReg(MSP)
T2468 20253:376.877 - 0.014ms returns 0x20000400
T2468 20253:376.887 JLINK_ReadReg(PSP)
T2468 20253:376.897 - 0.014ms returns 0x00000000
T2468 20253:376.908 JLINK_ReadReg(CFBP)
T2468 20253:376.917 - 0.014ms returns 0x00000000
T2468 20253:376.928 JLINK_ReadReg(FPSCR)
T2468 20253:386.990 - 10.078ms returns 0x00000000
T2468 20253:387.032 JLINK_ReadReg(FPS0)
T2468 20253:387.046 - 0.019ms returns 0x00000000
T2468 20253:387.058 JLINK_ReadReg(FPS1)
T2468 20253:387.068 - 0.014ms returns 0x00000000
T2468 20253:387.078 JLINK_ReadReg(FPS2)
T2468 20253:387.088 - 0.028ms returns 0x00000000
T2468 20253:387.112 JLINK_ReadReg(FPS3)
T2468 20253:387.128 - 0.020ms returns 0x00000000
T2468 20253:387.138 JLINK_ReadReg(FPS4)
T2468 20253:387.147 - 0.013ms returns 0x00000000
T2468 20253:387.158 JLINK_ReadReg(FPS5)
T2468 20253:387.167 - 0.014ms returns 0x00000000
T2468 20253:387.177 JLINK_ReadReg(FPS6)
T2468 20253:387.186 - 0.013ms returns 0x00000000
T2468 20253:387.196 JLINK_ReadReg(FPS7)
T2468 20253:387.206 - 0.014ms returns 0x00000000
T2468 20253:387.216 JLINK_ReadReg(FPS8)
T2468 20253:387.225 - 0.014ms returns 0x00000000
T2468 20253:387.235 JLINK_ReadReg(FPS9)
T2468 20253:387.245 - 0.014ms returns 0x00000000
T2468 20253:387.255 JLINK_ReadReg(FPS10)
T2468 20253:387.264 - 0.014ms returns 0x00000000
T2468 20253:387.274 JLINK_ReadReg(FPS11)
T2468 20253:387.284 - 0.014ms returns 0x00000000
T2468 20253:387.295 JLINK_ReadReg(FPS12)
T2468 20253:387.305 - 0.014ms returns 0x00000000
T2468 20253:387.315 JLINK_ReadReg(FPS13)
T2468 20253:387.324 - 0.013ms returns 0x00000000
T2468 20253:387.334 JLINK_ReadReg(FPS14)
T2468 20253:387.344 - 0.014ms returns 0x00000000
T2468 20253:387.354 JLINK_ReadReg(FPS15)
T2468 20253:387.363 - 0.013ms returns 0x00000000
T2468 20253:387.373 JLINK_ReadReg(FPS16)
T2468 20253:387.383 - 0.014ms returns 0x00000000
T2468 20253:387.393 JLINK_ReadReg(FPS17)
T2468 20253:387.402 - 0.013ms returns 0x00000000
T2468 20253:387.412 JLINK_ReadReg(FPS18)
T2468 20253:387.422 - 0.014ms returns 0x00000000
T2468 20253:387.432 JLINK_ReadReg(FPS19)
T2468 20253:387.441 - 0.014ms returns 0x00000000
T2468 20253:387.451 JLINK_ReadReg(FPS20)
T2468 20253:387.461 - 0.014ms returns 0x00000000
T2468 20253:387.471 JLINK_ReadReg(FPS21)
T2468 20253:387.480 - 0.014ms returns 0x00000000
T2468 20253:387.490 JLINK_ReadReg(FPS22)
T2468 20253:387.499 - 0.014ms returns 0x00000000
T2468 20253:387.510 JLINK_ReadReg(FPS23)
T2468 20253:387.519 - 0.014ms returns 0x00000000
T2468 20253:387.529 JLINK_ReadReg(FPS24)
T2468 20253:387.538 - 0.014ms returns 0x00000000
T2468 20253:387.549 JLINK_ReadReg(FPS25)
T2468 20253:387.558 - 0.015ms returns 0x00000000
T2468 20253:387.571 JLINK_ReadReg(FPS26)
T2468 20253:387.581 - 0.014ms returns 0x00000000
T2468 20253:387.591 JLINK_ReadReg(FPS27)
T2468 20253:387.601 - 0.014ms returns 0x00000000
T2468 20253:387.611 JLINK_ReadReg(FPS28)
T2468 20253:387.620 - 0.013ms returns 0x00000000
T2468 20253:387.630 JLINK_ReadReg(FPS29)
T2468 20253:387.641 - 0.015ms returns 0x00000000
T2468 20253:387.651 JLINK_ReadReg(FPS30)
T2468 20253:387.661 - 0.014ms returns 0x00000000
T2468 20253:387.671 JLINK_ReadReg(FPS31)
T2468 20253:387.680 - 0.014ms returns 0x00000000
T2DBC 20253:423.333   JLINK_ReadMemEx(0x00000A80, 0x0002 Bytes, ..., Flags = 0x02000000)
T2DBC 20253:423.382    -- Read from C cache (2 bytes @ 0x00000A80)
T2DBC 20253:423.398   Data:  06 4B
T2DBC 20253:423.412 - 0.085ms returns 0x02
T2DBC 20253:423.440   JLINK_SetBPEx(Addr = 0x0002B8E0, Type = 0xFFFFFFF2)
T2DBC 20253:423.457 - 0.022ms returns 0x00000001
T2DBC 20253:423.472 JLINK_Go()
T2DBC 20253:423.510    -- CPU_WriteMem(4 bytes @ 0xE0002000)
T2DBC 20253:452.107    -- CPU_ReadMem(4 bytes @ 0xE0001000)
T2DBC 20253:452.703    -- CPU_WriteMem(4 bytes @ 0xE0002008)
T2DBC 20253:452.743    -- CPU_WriteMem(4 bytes @ 0xE000200C)
T2DBC 20253:452.765    -- CPU_WriteMem(4 bytes @ 0xE0002010)
T2DBC 20253:452.785    -- CPU_WriteMem(4 bytes @ 0xE0002014)
T2DBC 20253:452.804    -- CPU_WriteMem(4 bytes @ 0xE0002018)
T2DBC 20253:452.823    -- CPU_WriteMem(4 bytes @ 0xE000201C)
T2DBC 20253:455.519    -- CPU_WriteMem(4 bytes @ 0xE0001004)
T2DBC 20253:457.264 - 33.834ms
T2DBC 20253:558.269 JLINK_IsHalted()
T2DBC 20253:574.514 - 16.273ms returns TRUE
T2DBC 20253:574.590 JLINK_Halt()
T2DBC 20253:574.615 - 0.033ms returns 0x00
T2DBC 20253:574.633 JLINK_IsHalted()
T2DBC 20253:574.649 - 0.023ms returns TRUE
T2DBC 20253:574.666 JLINK_IsHalted()
T2DBC 20253:574.678 - 0.017ms returns TRUE
T2DBC 20253:574.689 JLINK_IsHalted()
T2DBC 20253:574.699 - 0.014ms returns TRUE
T2DBC 20253:574.712 JLINK_ReadReg(R15 (PC))
T2DBC 20253:574.725 - 0.017ms returns 0x0002B8E0
T2DBC 20253:574.736 JLINK_ReadReg(XPSR)
T2DBC 20253:574.747 - 0.015ms returns 0x61000000
T2DBC 20253:574.766 JLINK_ClrBPEx(BPHandle = 0x00000001)
T2DBC 20253:574.778 - 0.016ms returns 0x00
T2DBC 20253:574.791   JLINK_ReadMemU32(0xE000ED30, 0x0001 Items, ...)
T2DBC 20253:574.813    -- CPU_ReadMem(4 bytes @ 0xE000ED30)
T2DBC 20253:575.450   Data:  02 00 00 00
T2DBC 20253:575.477 - 0.691ms returns 1
T2DBC 20253:575.517   JLINK_ReadMemU32(0xE0001028, 0x0001 Items, ...)
T2DBC 20253:575.540    -- CPU_ReadMem(4 bytes @ 0xE0001028)
T2DBC 20253:576.120   Data:  00 00 00 00
T2DBC 20253:576.139    - DWT_FUNC[0]
T2DBC 20253:576.154 - 0.642ms returns 1
T2DBC 20253:576.181   JLINK_ReadMemU32(0xE0001038, 0x0001 Items, ...)
T2DBC 20253:576.201    -- CPU_ReadMem(4 bytes @ 0xE0001038)
T2DBC 20253:576.747   Data:  00 02 00 00
T2DBC 20253:576.766    - DWT_FUNC[1]
T2DBC 20253:576.780 - 0.604ms returns 1
T2DBC 20253:576.805   JLINK_ReadMemU32(0xE0001048, 0x0001 Items, ...)
T2DBC 20253:576.825    -- CPU_ReadMem(4 bytes @ 0xE0001048)
T2DBC 20253:577.379   Data:  00 00 00 00
T2DBC 20253:577.399    - DWT_FUNC[2]
T2DBC 20253:577.413 - 0.612ms returns 1
T2DBC 20253:577.440   JLINK_ReadMemU32(0xE0001058, 0x0001 Items, ...)
T2DBC 20253:577.460    -- CPU_ReadMem(4 bytes @ 0xE0001058)
T2DBC 20253:578.003   Data:  00 00 00 00
T2DBC 20253:578.022    - DWT_FUNC[3]
T2DBC 20253:578.036 - 0.601ms returns 1
T2DBC 20253:578.120 JLINK_ReadReg(R0)
T2DBC 20253:578.136 - 0.021ms returns 0x0002B8E1
T2DBC 20253:578.147 JLINK_ReadReg(R1)
T2DBC 20253:578.158 - 0.015ms returns 0x20007898
T2DBC 20253:578.168 JLINK_ReadReg(R2)
T2DBC 20253:578.180 - 0.016ms returns 0x00000000
T2DBC 20253:578.191 JLINK_ReadReg(R3)
T2DBC 20253:578.201 - 0.014ms returns 0x00026FA5
T2DBC 20253:578.212 JLINK_ReadReg(R4)
T2DBC 20253:578.222 - 0.014ms returns 0x000329B4
T2DBC 20253:578.232 JLINK_ReadReg(R5)
T2DBC 20253:578.242 - 0.015ms returns 0x000329B4
T2DBC 20253:578.253 JLINK_ReadReg(R6)
T2DBC 20253:578.263 - 0.015ms returns 0x00000000
T2DBC 20253:578.278 JLINK_ReadReg(R7)
T2DBC 20253:578.291 - 0.018ms returns 0x0007E000
T2DBC 20253:578.302 JLINK_ReadReg(R8)
T2DBC 20253:578.311 - 0.014ms returns 0x00000000
T2DBC 20253:578.322 JLINK_ReadReg(R9)
T2DBC 20253:578.332 - 0.014ms returns 0x00000000
T2DBC 20253:578.343 JLINK_ReadReg(R10)
T2DBC 20253:578.353 - 0.014ms returns 0x00000000
T2DBC 20253:578.364 JLINK_ReadReg(R11)
T2DBC 20253:578.373 - 0.014ms returns 0x00000000
T2DBC 20253:578.384 JLINK_ReadReg(R12)
T2DBC 20253:578.394 - 0.014ms returns 0x40000614
T2DBC 20253:578.405 JLINK_ReadReg(R13 (SP))
T2DBC 20253:578.415 - 0.015ms returns 0x20007898
T2DBC 20253:578.427 JLINK_ReadReg(R14)
T2DBC 20253:578.437 - 0.015ms returns 0x00026511
T2DBC 20253:578.448 JLINK_ReadReg(R15 (PC))
T2DBC 20253:578.458 - 0.015ms returns 0x0002B8E0
T2DBC 20253:578.469 JLINK_ReadReg(XPSR)
T2DBC 20253:578.479 - 0.015ms returns 0x61000000
T2DBC 20253:578.490 JLINK_ReadReg(MSP)
T2DBC 20253:578.500 - 0.014ms returns 0x20007898
T2DBC 20253:578.510 JLINK_ReadReg(PSP)
T2DBC 20253:578.520 - 0.014ms returns 0x00000000
T2DBC 20253:578.531 JLINK_ReadReg(CFBP)
T2DBC 20253:578.541 - 0.014ms returns 0x00000000
T2DBC 20253:578.552 JLINK_ReadReg(FPSCR)
T2DBC 20253:588.814 - 10.286ms returns 0x00000000
T2DBC 20253:588.886 JLINK_ReadReg(FPS0)
T2DBC 20253:588.910 - 0.032ms returns 0x00000000
T2DBC 20253:588.929 JLINK_ReadReg(FPS1)
T2DBC 20253:588.946 - 0.026ms returns 0x00000000
T2DBC 20253:588.965 JLINK_ReadReg(FPS2)
T2DBC 20253:588.982 - 0.027ms returns 0x00000000
T2DBC 20253:589.002 JLINK_ReadReg(FPS3)
T2DBC 20253:589.019 - 0.024ms returns 0x00000000
T2DBC 20253:589.036 JLINK_ReadReg(FPS4)
T2DBC 20253:589.051 - 0.023ms returns 0x00000000
T2DBC 20253:589.068 JLINK_ReadReg(FPS5)
T2DBC 20253:589.083 - 0.022ms returns 0x00000000
T2DBC 20253:589.099 JLINK_ReadReg(FPS6)
T2DBC 20253:589.116 - 0.022ms returns 0x00000000
T2DBC 20253:589.131 JLINK_ReadReg(FPS7)
T2DBC 20253:589.146 - 0.020ms returns 0x00000000
T2DBC 20253:589.157 JLINK_ReadReg(FPS8)
T2DBC 20253:589.167 - 0.015ms returns 0x00000000
T2DBC 20253:589.177 JLINK_ReadReg(FPS9)
T2DBC 20253:589.187 - 0.014ms returns 0x00000000
T2DBC 20253:589.198 JLINK_ReadReg(FPS10)
T2DBC 20253:589.208 - 0.014ms returns 0x00000000
T2DBC 20253:589.219 JLINK_ReadReg(FPS11)
T2DBC 20253:589.229 - 0.015ms returns 0x00000000
T2DBC 20253:589.243 JLINK_ReadReg(FPS12)
T2DBC 20253:589.258 - 0.022ms returns 0x00000000
T2DBC 20253:589.272 JLINK_ReadReg(FPS13)
T2DBC 20253:589.283 - 0.015ms returns 0x00000000
T2DBC 20253:589.294 JLINK_ReadReg(FPS14)
T2DBC 20253:589.304 - 0.015ms returns 0x00000000
T2DBC 20253:589.314 JLINK_ReadReg(FPS15)
T2DBC 20253:589.324 - 0.015ms returns 0x00000000
T2DBC 20253:589.335 JLINK_ReadReg(FPS16)
T2DBC 20253:589.345 - 0.014ms returns 0x00000000
T2DBC 20253:589.356 JLINK_ReadReg(FPS17)
T2DBC 20253:589.365 - 0.015ms returns 0x00000000
T2DBC 20253:589.376 JLINK_ReadReg(FPS18)
T2DBC 20253:589.386 - 0.014ms returns 0x00000000
T2DBC 20253:589.397 JLINK_ReadReg(FPS19)
T2DBC 20253:589.407 - 0.015ms returns 0x00000000
T2DBC 20253:589.418 JLINK_ReadReg(FPS20)
T2DBC 20253:589.428 - 0.014ms returns 0x00000000
T2DBC 20253:589.438 JLINK_ReadReg(FPS21)
T2DBC 20253:589.448 - 0.015ms returns 0x00000000
T2DBC 20253:589.459 JLINK_ReadReg(FPS22)
T2DBC 20253:589.470 - 0.015ms returns 0x00000000
T2DBC 20253:589.480 JLINK_ReadReg(FPS23)
T2DBC 20253:589.492 - 0.016ms returns 0x00000000
T2DBC 20253:589.503 JLINK_ReadReg(FPS24)
T2DBC 20253:589.513 - 0.015ms returns 0x00000000
T2DBC 20253:589.524 JLINK_ReadReg(FPS25)
T2DBC 20253:589.534 - 0.014ms returns 0x00000000
T2DBC 20253:589.545 JLINK_ReadReg(FPS26)
T2DBC 20253:589.555 - 0.015ms returns 0x00000000
T2DBC 20253:589.566 JLINK_ReadReg(FPS27)
T2DBC 20253:589.576 - 0.015ms returns 0x00000000
T2DBC 20253:589.587 JLINK_ReadReg(FPS28)
T2DBC 20253:589.597 - 0.014ms returns 0x00000000
T2DBC 20253:589.608 JLINK_ReadReg(FPS29)
T2DBC 20253:589.618 - 0.015ms returns 0x00000000
T2DBC 20253:589.629 JLINK_ReadReg(FPS30)
T2DBC 20253:589.639 - 0.018ms returns 0x00000000
T2DBC 20253:589.655 JLINK_ReadReg(FPS31)
T2DBC 20253:589.666 - 0.015ms returns 0x00000000
T2468 20253:591.683   JLINK_ReadMemU32(0xE0001004, 0x0001 Items, ...)
T2468 20253:591.723    -- CPU_ReadMem(4 bytes @ 0xE0001004)
T2468 20253:592.331   Data:  49 D5 54 00
T2468 20253:592.351    - DWT_CYCCNT
T2468 20253:592.365 - 0.687ms returns 1
T2468 20253:593.004   JLINK_ReadMemEx(0x0002B8E0, 0x003C Bytes, ..., Flags = 0x02000000)
T2468 20253:593.031    -- CPU_ReadMem(128 bytes @ 0x0002B8C0)
T2468 20253:595.300    -- Updating C cache (128 bytes @ 0x0002B8C0)
T2468 20253:595.325    -- Read from C cache (60 bytes @ 0x0002B8E0)
T2468 20253:595.341   Data:  05 F0 6A FB FF F7 84 FF FF F7 9A FD 05 F0 D4 F9 ...
T2468 20253:595.355 - 2.357ms returns 0x3C
T2468 20253:595.387   JLINK_ReadMemEx(0x0002B8E0, 0x0002 Bytes, ..., Flags = 0x02000000)
T2468 20253:595.406    -- Read from C cache (2 bytes @ 0x0002B8E0)
T2468 20253:595.420   Data:  05 F0
T2468 20253:595.436 - 0.055ms returns 0x02
T2468 20253:595.496   JLINK_ReadMemEx(0x0002B8E2, 0x0002 Bytes, ..., Flags = 0x02000000)
T2468 20253:595.513    -- Read from C cache (2 bytes @ 0x0002B8E2)
T2468 20253:595.528   Data:  6A FB
T2468 20253:595.542 - 0.051ms returns 0x02
T2468 20294:071.736   JLINK_ReadMemU32(0xE0001004, 0x0001 Items, ...)
T2468 20294:071.791   Data:  49 D5 54 00
T2468 20294:071.803    - DWT_CYCCNT
T2468 20294:071.815 - 0.083ms returns 1
T2468 20303:145.032   JLINK_ReadMemEx(0x00000FF8, 0x00B4 Bytes, ..., Flags = 0x02000000)
T2468 20303:145.075    -- CPU_ReadMem(256 bytes @ 0x00000FC0)
T2468 20303:149.056    -- Updating C cache (256 bytes @ 0x00000FC0)
T2468 20303:149.079    -- Read from C cache (180 bytes @ 0x00000FF8)
T2468 20303:149.092   Data:  00 80 07 00 00 E0 07 00 B8 13 00 20 65 52 02 00 ...
T2468 20303:149.103 - 4.076ms returns 0xB4
T2DBC 20483:223.695   JLINK_ReadMemEx(0x0002B8E0, 0x0002 Bytes, ..., Flags = 0x02000000)
T2DBC 20483:223.763    -- Read from C cache (2 bytes @ 0x0002B8E0)
T2DBC 20483:223.777   Data:  05 F0
T2DBC 20483:223.793 - 0.105ms returns 0x02
T2DBC 20483:223.810   JLINK_SetBPEx(Addr = 0x0002AD2E, Type = 0xFFFFFFF2)
T2DBC 20483:223.828 - 0.023ms returns 0x00000002
T2DBC 20483:223.842 JLINK_Go()
T2DBC 20483:224.514    -- CPU_WriteMem(4 bytes @ 0xE0002000)
T2DBC 20483:225.128    -- CPU_ReadMem(4 bytes @ 0xE0001000)
T2DBC 20483:225.681    -- CPU_WriteMem(4 bytes @ 0xE0002008)
T2DBC 20483:227.188 - 3.354ms
T2DBC 20483:327.701 JLINK_IsHalted()
T2DBC 20483:328.434 - 0.747ms returns FALSE
T2DBC 20483:429.397 JLINK_IsHalted()
T2DBC 20483:430.107 - 0.724ms returns FALSE
T2DBC 20483:530.585 JLINK_IsHalted()
T2DBC 20483:532.688 - 2.119ms returns FALSE
T2DBC 20483:633.766 JLINK_IsHalted()
T2DBC 20483:634.468 - 0.715ms returns FALSE
T2DBC 20483:735.460 JLINK_IsHalted()
T2DBC 20483:743.150 - 7.707ms returns TRUE
T2DBC 20483:743.196 JLINK_Halt()
T2DBC 20483:743.208 - 0.015ms returns 0x00
T2DBC 20483:743.217 JLINK_IsHalted()
T2DBC 20483:743.225 - 0.012ms returns TRUE
T2DBC 20483:743.234 JLINK_IsHalted()
T2DBC 20483:743.242 - 0.011ms returns TRUE
T2DBC 20483:743.251 JLINK_IsHalted()
T2DBC 20483:743.258 - 0.011ms returns TRUE
T2DBC 20483:743.269 JLINK_ReadReg(R15 (PC))
T2DBC 20483:743.280 - 0.014ms returns 0x0002AD2E
T2DBC 20483:743.289 JLINK_ReadReg(XPSR)
T2DBC 20483:743.298 - 0.014ms returns 0x61000000
T2DBC 20483:743.312 JLINK_ClrBPEx(BPHandle = 0x00000002)
T2DBC 20483:743.321 - 0.012ms returns 0x00
T2DBC 20483:743.332   JLINK_ReadMemU32(0xE000ED30, 0x0001 Items, ...)
T2DBC 20483:743.348    -- CPU_ReadMem(4 bytes @ 0xE000ED30)
T2DBC 20483:745.934   Data:  02 00 00 00
T2DBC 20483:745.960 - 2.633ms returns 1
T2DBC 20483:745.995   JLINK_ReadMemU32(0xE0001028, 0x0001 Items, ...)
T2DBC 20483:746.014    -- CPU_ReadMem(4 bytes @ 0xE0001028)
T2DBC 20483:747.430   Data:  00 00 00 00
T2DBC 20483:747.452    - DWT_FUNC[0]
T2DBC 20483:747.464 - 1.473ms returns 1
T2DBC 20483:747.496   JLINK_ReadMemU32(0xE0001038, 0x0001 Items, ...)
T2DBC 20483:747.513    -- CPU_ReadMem(4 bytes @ 0xE0001038)
T2DBC 20483:748.951   Data:  00 02 00 00
T2DBC 20483:748.973    - DWT_FUNC[1]
T2DBC 20483:748.985 - 1.493ms returns 1
T2DBC 20483:749.016   JLINK_ReadMemU32(0xE0001048, 0x0001 Items, ...)
T2DBC 20483:749.033    -- CPU_ReadMem(4 bytes @ 0xE0001048)
T2DBC 20483:750.475   Data:  00 00 00 00
T2DBC 20483:750.497    - DWT_FUNC[2]
T2DBC 20483:750.509 - 1.497ms returns 1
T2DBC 20483:750.541   JLINK_ReadMemU32(0xE0001058, 0x0001 Items, ...)
T2DBC 20483:750.558    -- CPU_ReadMem(4 bytes @ 0xE0001058)
T2DBC 20483:751.996   Data:  00 00 00 00
T2DBC 20483:752.018    - DWT_FUNC[3]
T2DBC 20483:752.029 - 1.493ms returns 1
T2DBC 20483:752.123 JLINK_ReadReg(R0)
T2DBC 20483:752.136 - 0.016ms returns 0x00000000
T2DBC 20483:752.145 JLINK_ReadReg(R1)
T2DBC 20483:752.153 - 0.012ms returns 0x00000001
T2DBC 20483:752.162 JLINK_ReadReg(R2)
T2DBC 20483:752.170 - 0.012ms returns 0x20007810
T2DBC 20483:752.179 JLINK_ReadReg(R3)
T2DBC 20483:752.187 - 0.012ms returns 0x00000001
T2DBC 20483:752.196 JLINK_ReadReg(R4)
T2DBC 20483:752.204 - 0.012ms returns 0x00003000
T2DBC 20483:752.212 JLINK_ReadReg(R5)
T2DBC 20483:752.220 - 0.011ms returns 0x000329B4
T2DBC 20483:752.229 JLINK_ReadReg(R6)
T2DBC 20483:752.237 - 0.012ms returns 0x00000000
T2DBC 20483:752.246 JLINK_ReadReg(R7)
T2DBC 20483:752.254 - 0.011ms returns 0x0007E000
T2DBC 20483:752.264 JLINK_ReadReg(R8)
T2DBC 20483:752.272 - 0.012ms returns 0x00000000
T2DBC 20483:752.281 JLINK_ReadReg(R9)
T2DBC 20483:752.289 - 0.011ms returns 0x00000000
T2DBC 20483:752.297 JLINK_ReadReg(R10)
T2DBC 20483:752.305 - 0.011ms returns 0x00000000
T2DBC 20483:752.314 JLINK_ReadReg(R11)
T2DBC 20483:752.322 - 0.011ms returns 0x00000000
T2DBC 20483:752.331 JLINK_ReadReg(R12)
T2DBC 20483:752.339 - 0.012ms returns 0x000000C0
T2DBC 20483:752.347 JLINK_ReadReg(R13 (SP))
T2DBC 20483:752.356 - 0.012ms returns 0x20007818
T2DBC 20483:752.364 JLINK_ReadReg(R14)
T2DBC 20483:752.372 - 0.012ms returns 0x0002AD1B
T2DBC 20483:752.381 JLINK_ReadReg(R15 (PC))
T2DBC 20483:752.389 - 0.012ms returns 0x0002AD2E
T2DBC 20483:752.398 JLINK_ReadReg(XPSR)
T2DBC 20483:752.406 - 0.012ms returns 0x61000000
T2DBC 20483:752.415 JLINK_ReadReg(MSP)
T2DBC 20483:752.423 - 0.011ms returns 0x20007818
T2DBC 20483:752.431 JLINK_ReadReg(PSP)
T2DBC 20483:752.439 - 0.011ms returns 0x00000000
T2DBC 20483:752.448 JLINK_ReadReg(CFBP)
T2DBC 20483:752.456 - 0.011ms returns 0x00000000
T2DBC 20483:752.465 JLINK_ReadReg(FPSCR)
T2DBC 20483:764.226 - 11.782ms returns 0x00000000
T2DBC 20483:764.277 JLINK_ReadReg(FPS0)
T2DBC 20483:764.290 - 0.017ms returns 0x00000000
T2DBC 20483:764.299 JLINK_ReadReg(FPS1)
T2DBC 20483:764.308 - 0.012ms returns 0x00000000
T2DBC 20483:764.320 JLINK_ReadReg(FPS2)
T2DBC 20483:764.328 - 0.012ms returns 0x00000000
T2DBC 20483:764.337 JLINK_ReadReg(FPS3)
T2DBC 20483:764.345 - 0.012ms returns 0x00000000
T2DBC 20483:764.354 JLINK_ReadReg(FPS4)
T2DBC 20483:764.362 - 0.011ms returns 0x00000000
T2DBC 20483:764.370 JLINK_ReadReg(FPS5)
T2DBC 20483:764.378 - 0.012ms returns 0x00000000
T2DBC 20483:764.387 JLINK_ReadReg(FPS6)
T2DBC 20483:764.395 - 0.012ms returns 0x00000000
T2DBC 20483:764.404 JLINK_ReadReg(FPS7)
T2DBC 20483:764.412 - 0.012ms returns 0x00000000
T2DBC 20483:764.421 JLINK_ReadReg(FPS8)
T2DBC 20483:764.429 - 0.012ms returns 0x00000000
T2DBC 20483:764.437 JLINK_ReadReg(FPS9)
T2DBC 20483:764.446 - 0.012ms returns 0x00000000
T2DBC 20483:764.454 JLINK_ReadReg(FPS10)
T2DBC 20483:764.462 - 0.012ms returns 0x00000000
T2DBC 20483:764.471 JLINK_ReadReg(FPS11)
T2DBC 20483:764.479 - 0.012ms returns 0x00000000
T2DBC 20483:764.488 JLINK_ReadReg(FPS12)
T2DBC 20483:764.496 - 0.012ms returns 0x00000000
T2DBC 20483:764.505 JLINK_ReadReg(FPS13)
T2DBC 20483:764.513 - 0.012ms returns 0x00000000
T2DBC 20483:764.522 JLINK_ReadReg(FPS14)
T2DBC 20483:764.530 - 0.012ms returns 0x00000000
T2DBC 20483:764.539 JLINK_ReadReg(FPS15)
T2DBC 20483:764.547 - 0.012ms returns 0x00000000
T2DBC 20483:764.555 JLINK_ReadReg(FPS16)
T2DBC 20483:764.563 - 0.012ms returns 0x00000000
T2DBC 20483:764.611 JLINK_ReadReg(FPS17)
T2DBC 20483:764.623 - 0.016ms returns 0x00000000
T2DBC 20483:764.632 JLINK_ReadReg(FPS18)
T2DBC 20483:764.640 - 0.012ms returns 0x00000000
T2DBC 20483:764.649 JLINK_ReadReg(FPS19)
T2DBC 20483:764.657 - 0.012ms returns 0x00000000
T2DBC 20483:764.671 JLINK_ReadReg(FPS20)
T2DBC 20483:764.679 - 0.012ms returns 0x00000000
T2DBC 20483:764.688 JLINK_ReadReg(FPS21)
T2DBC 20483:764.696 - 0.012ms returns 0x00000000
T2DBC 20483:764.705 JLINK_ReadReg(FPS22)
T2DBC 20483:764.713 - 0.012ms returns 0x00000000
T2DBC 20483:764.722 JLINK_ReadReg(FPS23)
T2DBC 20483:764.730 - 0.012ms returns 0x00000000
T2DBC 20483:764.739 JLINK_ReadReg(FPS24)
T2DBC 20483:764.747 - 0.012ms returns 0x00000000
T2DBC 20483:764.756 JLINK_ReadReg(FPS25)
T2DBC 20483:764.763 - 0.012ms returns 0x00000000
T2DBC 20483:764.772 JLINK_ReadReg(FPS26)
T2DBC 20483:764.780 - 0.012ms returns 0x00000000
T2DBC 20483:764.789 JLINK_ReadReg(FPS27)
T2DBC 20483:764.797 - 0.012ms returns 0x00000000
T2DBC 20483:764.806 JLINK_ReadReg(FPS28)
T2DBC 20483:764.814 - 0.012ms returns 0x00000000
T2DBC 20483:764.823 JLINK_ReadReg(FPS29)
T2DBC 20483:764.831 - 0.012ms returns 0x00000000
T2DBC 20483:764.840 JLINK_ReadReg(FPS30)
T2DBC 20483:764.848 - 0.012ms returns 0x00000000
T2DBC 20483:764.856 JLINK_ReadReg(FPS31)
T2DBC 20483:764.864 - 0.011ms returns 0x00000000
T2468 20483:765.075   JLINK_ReadMemEx(0x2000781C, 0x0004 Bytes, ..., Flags = 0x02000000)
T2468 20483:765.105    -- CPU_ReadMem(64 bytes @ 0x20007800)
T2468 20483:767.835    -- Updating C cache (64 bytes @ 0x20007800)
T2468 20483:767.859    -- Read from C cache (4 bytes @ 0x2000781C)
T2468 20483:767.872   Data:  1B AD 02 00
T2468 20483:767.889 - 2.818ms returns 0x04
T2468 20483:767.982   JLINK_ReadMemEx(0x20007818, 0x0004 Bytes, ..., Flags = 0x02000000)
T2468 20483:767.999    -- Read from C cache (4 bytes @ 0x20007818)
T2468 20483:768.010   Data:  00 30 00 00
T2468 20483:768.022 - 0.044ms returns 0x04
T2468 20483:768.031   JLINK_ReadMemEx(0x2000781C, 0x0004 Bytes, ..., Flags = 0x02000000)
T2468 20483:768.044    -- Read from C cache (4 bytes @ 0x2000781C)
T2468 20483:768.055   Data:  1B AD 02 00
T2468 20483:768.067 - 0.039ms returns 0x04
T2468 20483:768.077   JLINK_ReadMemEx(0x20007824, 0x0004 Bytes, ..., Flags = 0x02000000)
T2468 20483:768.090    -- Read from C cache (4 bytes @ 0x20007824)
T2468 20483:768.101   Data:  6B AD 02 00
T2468 20483:768.113 - 0.039ms returns 0x04
T2468 20483:768.123   JLINK_ReadMemEx(0x20007820, 0x0004 Bytes, ..., Flags = 0x02000000)
T2468 20483:768.137    -- Read from C cache (4 bytes @ 0x20007820)
T2468 20483:768.148   Data:  B4 29 03 00
T2468 20483:768.161 - 0.042ms returns 0x04
T2468 20483:768.170   JLINK_ReadMemEx(0x20007824, 0x0004 Bytes, ..., Flags = 0x02000000)
T2468 20483:768.182    -- Read from C cache (4 bytes @ 0x20007824)
T2468 20483:768.194   Data:  6B AD 02 00
T2468 20483:768.205 - 0.039ms returns 0x04
T2468 20483:768.215   JLINK_ReadMemEx(0x2000782C, 0x0004 Bytes, ..., Flags = 0x02000000)
T2468 20483:768.227    -- Read from C cache (4 bytes @ 0x2000782C)
T2468 20483:768.239   Data:  E1 A6 02 00
T2468 20483:768.250 - 0.039ms returns 0x04
T2468 20483:768.265   JLINK_ReadMemEx(0x20007828, 0x0004 Bytes, ..., Flags = 0x02000000)
T2468 20483:768.278    -- Read from C cache (4 bytes @ 0x20007828)
T2468 20483:768.289   Data:  B4 29 03 00
T2468 20483:768.301 - 0.039ms returns 0x04
T2468 20483:768.310   JLINK_ReadMemEx(0x2000782C, 0x0004 Bytes, ..., Flags = 0x02000000)
T2468 20483:768.322    -- Read from C cache (4 bytes @ 0x2000782C)
T2468 20483:768.334   Data:  E1 A6 02 00
T2468 20483:768.345 - 0.039ms returns 0x04
T2468 20483:768.355   JLINK_ReadMemEx(0x20007854, 0x0004 Bytes, ..., Flags = 0x02000000)
T2468 20483:768.369    -- CPU_ReadMem(64 bytes @ 0x20007840)
T2468 20483:770.149    -- Updating C cache (64 bytes @ 0x20007840)
T2468 20483:770.171    -- Read from C cache (4 bytes @ 0x20007854)
T2468 20483:770.183   Data:  AB A9 02 00
T2468 20483:770.195 - 1.844ms returns 0x04
T2468 20483:770.561   JLINK_ReadMemEx(0x20007848, 0x0004 Bytes, ..., Flags = 0x02000000)
T2468 20483:770.582    -- Read from C cache (4 bytes @ 0x20007848)
T2468 20483:770.595   Data:  B4 29 03 00
T2468 20483:770.607 - 0.050ms returns 0x04
T2468 20483:770.617   JLINK_ReadMemEx(0x2000784C, 0x0004 Bytes, ..., Flags = 0x02000000)
T2468 20483:770.629    -- Read from C cache (4 bytes @ 0x2000784C)
T2468 20483:770.641   Data:  B4 29 03 00
T2468 20483:770.652 - 0.039ms returns 0x04
T2468 20483:770.661   JLINK_ReadMemEx(0x20007850, 0x0004 Bytes, ..., Flags = 0x02000000)
T2468 20483:770.673    -- Read from C cache (4 bytes @ 0x20007850)
T2468 20483:770.685   Data:  00 00 00 00
T2468 20483:770.697 - 0.039ms returns 0x04
T2468 20483:770.706   JLINK_ReadMemEx(0x20007854, 0x0004 Bytes, ..., Flags = 0x02000000)
T2468 20483:770.718    -- Read from C cache (4 bytes @ 0x20007854)
T2468 20483:770.729   Data:  AB A9 02 00
T2468 20483:770.741 - 0.039ms returns 0x04
T2468 20483:770.751   JLINK_ReadMemEx(0x20007894, 0x0004 Bytes, ..., Flags = 0x02000000)
T2468 20483:770.765    -- CPU_ReadMem(64 bytes @ 0x20007880)
T2468 20483:772.438    -- Updating C cache (64 bytes @ 0x20007880)
T2468 20483:772.461    -- Read from C cache (4 bytes @ 0x20007894)
T2468 20483:772.473   Data:  19 B9 02 00
T2468 20483:772.485 - 1.737ms returns 0x04
T2468 20483:772.519   JLINK_ReadMemEx(0x2000788C, 0x0004 Bytes, ..., Flags = 0x02000000)
T2468 20483:772.535    -- Read from C cache (4 bytes @ 0x2000788C)
T2468 20483:772.547   Data:  B4 29 03 00
T2468 20483:772.559 - 0.043ms returns 0x04
T2468 20483:772.568   JLINK_ReadMemEx(0x20007890, 0x0004 Bytes, ..., Flags = 0x02000000)
T2468 20483:772.581    -- Read from C cache (4 bytes @ 0x20007890)
T2468 20483:772.593   Data:  B4 29 03 00
T2468 20483:772.604 - 0.040ms returns 0x04
T2468 20483:772.613   JLINK_ReadMemEx(0x20007894, 0x0004 Bytes, ..., Flags = 0x02000000)
T2468 20483:772.625    -- Read from C cache (4 bytes @ 0x20007894)
T2468 20483:772.637   Data:  19 B9 02 00
T2468 20483:772.648 - 0.039ms returns 0x04
T2468 20483:773.787   JLINK_ReadMemEx(0x00000FF8, 0x00B4 Bytes, ..., Flags = 0x02000000)
T2468 20483:773.810    -- CPU_ReadMem(256 bytes @ 0x00000FC0)
T2468 20483:778.430    -- Updating C cache (256 bytes @ 0x00000FC0)
T2468 20483:778.454    -- Read from C cache (180 bytes @ 0x00000FF8)
T2468 20483:778.468   Data:  00 80 07 00 00 E0 07 00 B8 13 00 20 65 52 02 00 ...
T2468 20483:778.479 - 4.697ms returns 0xB4
T2468 20483:779.646   JLINK_ReadMemEx(0x0002AD2E, 0x0002 Bytes, ..., Flags = 0x02000000)
T2468 20483:779.670    -- CPU_ReadMem(64 bytes @ 0x0002AD00)
T2468 20483:782.078    -- Updating C cache (64 bytes @ 0x0002AD00)
T2468 20483:782.100    -- Read from C cache (2 bytes @ 0x0002AD2E)
T2468 20483:782.112   Data:  40 F6
T2468 20483:782.124 - 2.482ms returns 0x02
T2468 20483:782.155   JLINK_ReadMemEx(0x0002AD30, 0x003C Bytes, ..., Flags = 0x02000000)
T2468 20483:782.172    -- CPU_ReadMem(64 bytes @ 0x0002AD40)
T2468 20483:784.366    -- Updating C cache (64 bytes @ 0x0002AD40)
T2468 20483:784.388    -- Read from C cache (60 bytes @ 0x0002AD30)
T2468 20483:784.401   Data:  F8 70 00 68 40 1C 18 B9 4F F0 10 20 40 69 02 E0 ...
T2468 20483:784.413 - 2.262ms returns 0x3C
T2468 20483:784.443   JLINK_ReadMemEx(0x0002AD30, 0x0002 Bytes, ..., Flags = 0x02000000)
T2468 20483:784.458    -- Read from C cache (2 bytes @ 0x0002AD30)
T2468 20483:784.470   Data:  F8 70
T2468 20483:784.481 - 0.043ms returns 0x02
T2DBC 20488:788.638   JLINK_ReadMemEx(0x0002AD2E, 0x0002 Bytes, ..., Flags = 0x02000000)
T2DBC 20488:788.687    -- Read from C cache (2 bytes @ 0x0002AD2E)
T2DBC 20488:788.700   Data:  40 F6
T2DBC 20488:788.712 - 0.079ms returns 0x02
T2DBC 20488:788.731 JLINK_Step()
T2DBC 20488:790.262    -- CPU_WriteMem(4 bytes @ 0xE0002008)
T2DBC 20488:802.118 - 13.409ms returns 0x00
T2DBC 20488:802.173 JLINK_ReadReg(R15 (PC))
T2DBC 20488:802.186 - 0.017ms returns 0x0002AD32
T2DBC 20488:802.196 JLINK_ReadReg(XPSR)
T2DBC 20488:802.204 - 0.012ms returns 0x61000000
T2DBC 20488:802.228   JLINK_ReadMemEx(0x0002AD30, 0x003C Bytes, ..., Flags = 0x02000000)
T2DBC 20488:802.264    -- CPU_ReadMem(128 bytes @ 0x0002AD00)
T2DBC 20488:806.548    -- Updating C cache (128 bytes @ 0x0002AD00)
T2DBC 20488:806.572    -- Read from C cache (60 bytes @ 0x0002AD30)
T2DBC 20488:806.585   Data:  F8 70 00 68 40 1C 18 B9 4F F0 10 20 40 69 02 E0 ...
T2DBC 20488:806.597 - 4.374ms returns 0x3C
T2DBC 20488:806.630   JLINK_ReadMemEx(0x0002AD30, 0x0002 Bytes, ..., Flags = 0x02000000)
T2DBC 20488:806.645    -- Read from C cache (2 bytes @ 0x0002AD30)
T2DBC 20488:806.657   Data:  F8 70
T2DBC 20488:806.669 - 0.043ms returns 0x02
T2DBC 20488:806.679   JLINK_ReadMemEx(0x0002AD32, 0x0002 Bytes, ..., Flags = 0x02000000)
T2DBC 20488:806.691    -- Read from C cache (2 bytes @ 0x0002AD32)
T2DBC 20488:806.703   Data:  00 68
T2DBC 20488:806.714 - 0.039ms returns 0x02
T2DBC 20488:806.724   JLINK_ReadMemEx(0x0002AD32, 0x0002 Bytes, ..., Flags = 0x02000000)
T2DBC 20488:806.736    -- Read from C cache (2 bytes @ 0x0002AD32)
T2DBC 20488:806.747   Data:  00 68
T2DBC 20488:806.759 - 0.039ms returns 0x02
T2DBC 20488:806.768   JLINK_ReadMemEx(0x0002AD34, 0x003C Bytes, ..., Flags = 0x02000000)
T2DBC 20488:806.780    -- Read from C cache (60 bytes @ 0x0002AD34)
T2DBC 20488:806.792   Data:  40 1C 18 B9 4F F0 10 20 40 69 02 E0 40 F6 F8 70 ...
T2DBC 20488:806.803 - 0.039ms returns 0x3C
T2DBC 20488:806.812   JLINK_ReadMemEx(0x0002AD34, 0x0002 Bytes, ..., Flags = 0x02000000)
T2DBC 20488:806.824    -- Read from C cache (2 bytes @ 0x0002AD34)
T2DBC 20488:806.835   Data:  40 1C
T2DBC 20488:806.847 - 0.039ms returns 0x02
T2DBC 20488:806.858 JLINK_Step()
T2DBC 20488:816.782 - 9.944ms returns 0x00
T2DBC 20488:816.834 JLINK_ReadReg(R15 (PC))
T2DBC 20488:816.847 - 0.017ms returns 0x0002AD34
T2DBC 20488:816.857 JLINK_ReadReg(XPSR)
T2DBC 20488:816.865 - 0.012ms returns 0x61000000
T2DBC 20488:816.887   JLINK_ReadMemEx(0x0002AD34, 0x003C Bytes, ..., Flags = 0x02000000)
T2DBC 20488:816.906    -- CPU_ReadMem(128 bytes @ 0x0002AD00)
T2DBC 20488:821.222    -- Updating C cache (128 bytes @ 0x0002AD00)
T2DBC 20488:821.245    -- Read from C cache (60 bytes @ 0x0002AD34)
T2DBC 20488:821.259   Data:  40 1C 18 B9 4F F0 10 20 40 69 02 E0 40 F6 F8 70 ...
T2DBC 20488:821.270 - 4.387ms returns 0x3C
T2DBC 20488:821.301   JLINK_ReadMemEx(0x0002AD34, 0x0002 Bytes, ..., Flags = 0x02000000)
T2DBC 20488:821.316    -- Read from C cache (2 bytes @ 0x0002AD34)
T2DBC 20488:821.327   Data:  40 1C
T2DBC 20488:821.339 - 0.043ms returns 0x02
T2DBC 20488:821.349   JLINK_ReadMemEx(0x0002AD36, 0x0002 Bytes, ..., Flags = 0x02000000)
T2DBC 20488:821.361    -- Read from C cache (2 bytes @ 0x0002AD36)
T2DBC 20488:821.373   Data:  18 B9
T2DBC 20488:821.384 - 0.040ms returns 0x02
T2DBC 20488:821.396 JLINK_Step()
T2DBC 20488:831.437 - 10.055ms returns 0x00
T2DBC 20488:831.483 JLINK_ReadReg(R15 (PC))
T2DBC 20488:831.495 - 0.016ms returns 0x0002AD36
T2DBC 20488:831.505 JLINK_ReadReg(XPSR)
T2DBC 20488:831.513 - 0.012ms returns 0x01000000
T2DBC 20488:831.531   JLINK_ReadMemEx(0x0002AD36, 0x0002 Bytes, ..., Flags = 0x02000000)
T2DBC 20488:831.547    -- CPU_ReadMem(64 bytes @ 0x0002AD00)
T2DBC 20488:835.053    -- Updating C cache (64 bytes @ 0x0002AD00)
T2DBC 20488:835.075    -- Read from C cache (2 bytes @ 0x0002AD36)
T2DBC 20488:835.087   Data:  18 B9
T2DBC 20488:835.100 - 3.573ms returns 0x02
T2DBC 20488:835.131   JLINK_ReadMemEx(0x0002AD38, 0x003C Bytes, ..., Flags = 0x02000000)
T2DBC 20488:835.147    -- CPU_ReadMem(64 bytes @ 0x0002AD40)
T2DBC 20488:837.366    -- Updating C cache (64 bytes @ 0x0002AD40)
T2DBC 20488:837.389    -- Read from C cache (60 bytes @ 0x0002AD38)
T2DBC 20488:837.402   Data:  4F F0 10 20 40 69 02 E0 40 F6 F8 70 00 68 03 46 ...
T2DBC 20488:837.414 - 2.287ms returns 0x3C
T2DBC 20488:837.445   JLINK_ReadMemEx(0x0002AD38, 0x0002 Bytes, ..., Flags = 0x02000000)
T2DBC 20488:837.460    -- Read from C cache (2 bytes @ 0x0002AD38)
T2DBC 20488:837.473   Data:  4F F0
T2DBC 20488:837.484 - 0.044ms returns 0x02
T2DBC 20488:837.496 JLINK_Step()
T2DBC 20488:847.533 - 10.052ms returns 0x00
T2DBC 20488:847.572 JLINK_ReadReg(R15 (PC))
T2DBC 20488:847.584 - 0.017ms returns 0x0002AD40
T2DBC 20488:847.594 JLINK_ReadReg(XPSR)
T2DBC 20488:847.603 - 0.012ms returns 0x01000000
T2DBC 20488:847.617   JLINK_ReadMemEx(0x0002AD3E, 0x0002 Bytes, ..., Flags = 0x02000000)
T2DBC 20488:847.633    -- CPU_ReadMem(64 bytes @ 0x0002AD00)
T2DBC 20488:851.232    -- Updating C cache (64 bytes @ 0x0002AD00)
T2DBC 20488:851.257    -- Read from C cache (2 bytes @ 0x0002AD3E)
T2DBC 20488:851.270   Data:  02 E0
T2DBC 20488:851.282 - 3.669ms returns 0x02
T2DBC 20488:851.308   JLINK_ReadMemEx(0x0002AD40, 0x003C Bytes, ..., Flags = 0x02000000)
T2DBC 20488:851.325    -- CPU_ReadMem(64 bytes @ 0x0002AD40)
T2DBC 20488:853.528    -- Updating C cache (64 bytes @ 0x0002AD40)
T2DBC 20488:853.548    -- Read from C cache (60 bytes @ 0x0002AD40)
T2DBC 20488:853.561   Data:  40 F6 F8 70 00 68 03 46 4F F0 80 50 01 69 42 69 ...
T2DBC 20488:853.572 - 2.268ms returns 0x3C
T2DBC 20488:853.600   JLINK_ReadMemEx(0x0002AD40, 0x0002 Bytes, ..., Flags = 0x02000000)
T2DBC 20488:853.615    -- Read from C cache (2 bytes @ 0x0002AD40)
T2DBC 20488:853.627   Data:  40 F6
T2DBC 20488:853.638 - 0.042ms returns 0x02
T2DBC 20488:853.648   JLINK_ReadMemEx(0x0002AD40, 0x003C Bytes, ..., Flags = 0x02000000)
T2DBC 20488:853.660    -- Read from C cache (60 bytes @ 0x0002AD40)
T2DBC 20488:853.673   Data:  40 F6 F8 70 00 68 03 46 4F F0 80 50 01 69 42 69 ...
T2DBC 20488:853.684 - 0.039ms returns 0x3C
T2DBC 20488:853.693   JLINK_ReadMemEx(0x0002AD40, 0x0002 Bytes, ..., Flags = 0x02000000)
T2DBC 20488:853.705    -- Read from C cache (2 bytes @ 0x0002AD40)
T2DBC 20488:853.716   Data:  40 F6
T2DBC 20488:853.728 - 0.039ms returns 0x02
